
T16CC 000:085 SEGGER J-Link V6.12a Log File (0000ms, 0058ms total)
T16CC 000:085 DLL Compiled: Dec  2 2016 16:44:26 (0000ms, 0058ms total)
T16CC 000:085 Logging started @ 2017-06-12 14:09 (0000ms, 0058ms total)
T16CC 000:085 JLINK_SetWarnOutHandler(...) (0000ms, 0058ms total)
T16CC 000:085 JLINK_OpenEx(...)
Firmware: J-Link V9 compiled Dec  2 2016 15:35:20
Hardware: V9.40
S/N: 269401977
OEM: SEGGER-EDU
Feature(s): FlashBP, GDBWEBSRV Webserver running on local port 19080 (0024ms, 0082ms total)
T16CC 000:085   returns O.K. (0024ms, 0082ms total)
T16CC 000:109 JLINK_SetErrorOutHandler(...) (0000ms, 0082ms total)
T16CC 000:109 JLINK_ExecCommand("ProjectFile = "C:\Users\raulm\workspace\mbed\BluePill_mbedOS\JLinkSettings.ini"", ...). C:\Program Files (x86)\SEGGER\JLink_V612a\JLinkDevices.xml evaluated successfully.  returns 0x00 (0101ms, 0183ms total)
T16CC 000:211 JLINK_ExecCommand("Device = STM32F103R8", ...). Device "STM32F103R8" selected.  returns 0x00 (0000ms, 0183ms total)
T16CC 000:211 JLINK_ExecCommand("DisableConnectionTimeout", ...).   returns 0x01 (0000ms, 0183ms total)
T16CC 000:211 JLINK_GetHardwareVersion()  returns 0x16F30 (0000ms, 0183ms total)
T16CC 000:211 JLINK_GetDLLVersion()  returns 61201 (0000ms, 0183ms total)
T16CC 000:214 JLINK_GetDLLVersion()  returns 61201 (0000ms, 0183ms total)
T16CC 000:214 JLINK_GetCompileDateTime() (0000ms, 0183ms total)
T16CC 000:215 JLINK_GetFirmwareString(...) (0001ms, 0184ms total)
T16CC 000:217 JLINK_GetHardwareVersion()  returns 0x16F30 (0000ms, 0184ms total)
T16CC 000:222 JLINK_TIF_Select(JLINKARM_TIF_JTAG)  returns 0x00 (0007ms, 0191ms total)
T16CC 000:229 JLINK_SetSpeed(50000) (0001ms, 0192ms total)
T16CC 000:230 JLINK_GetIdData(...) >0x2F8 JTAG>TotalIRLen = 9, IRPrint = 0x0011 >0x30 JTAG> >0x410 JTAG> >0x40 JTAG> >0x40 JTAG> >0x40 JTAG> >0x30 JTAG> >0x40 JTAG> >0x40 JTAG> >0x40 JTAG> >0x40 JTAG> >0x40 JTAG> >0x40 JTAG> >0x40 JTAG> >0x40 JTAG> >0x40 JTAG> >0x40 JTAG> >0x40 JTAG> >0x40 JTAG> >0x40 JTAG> >0x40 JTAG> >0x40 JTAG> >0x40 JTAG> >0x40 JTAG> >0x40 JTAG> >0x40 JTAG> >0x40 JTAG> >0x40 JTAG> >0x40 JTAG> >0x40 JTAG> >0x2F8 JTAG>TotalIRLen = 9, IRPrint = 0x0011 >0x30 JTAG> >0x410 JTAG>
 >0x70 JTAG> >0x50 JTAG> >0x40 JTAG> >0x50 JTAG>AP-IDR: 0x14770011, Type: AHB-APStart searching for Cortex-M ROM table with ROMTable[0] @ 0xE00FF000.ROMTable[1]: Cortex-M ROM table found. >0x80 JTAG> >0x40 JTAG> >0x30 JTAG> >0x40 JTAG> >0x40 JTAG> >0x30 JTAG> >0x40 JTAG> >0x50 JTAG>Found Cortex-M3 r1p1, Little endian. -- CPU_ReadMem(4 bytes @ 0xE000EDF0) -- CPU_ReadMem(4 bytes @ 0xE0002000)FPUnit: 6 code (BP) slots and 2 literal slots -- CPU_ReadMem(4 bytes @ 0xE000EDFC)
 -- CPU_ReadMem(4 bytes @ 0xE0001000) -- CPU_WriteMem(4 bytes @ 0xE0001000) -- CPU_ReadMem(4 bytes @ 0xE000ED88) -- CPU_WriteMem(4 bytes @ 0xE000ED88) -- CPU_ReadMem(4 bytes @ 0xE000ED88) -- CPU_WriteMem(4 bytes @ 0xE000ED88)CoreSight components:ROMTbl 0 @ E00FF000 -- CPU_ReadMem(16 bytes @ 0xE00FF000) -- CPU_ReadMem(16 bytes @ 0xE000EFF0) -- CPU_ReadMem(16 bytes @ 0xE000EFE0)ROMTbl 0 [0]: FFF0F000, CID: B105E00D, PID: 001BB000 SCS -- CPU_ReadMem(16 bytes @ 0xE0001FF0)
 -- CPU_ReadMem(16 bytes @ 0xE0001FE0)ROMTbl 0 [1]: FFF02000, CID: B105E00D, PID: 001BB002 DWT -- CPU_ReadMem(16 bytes @ 0xE0002FF0) -- CPU_ReadMem(16 bytes @ 0xE0002FE0)ROMTbl 0 [2]: FFF03000, CID: B105E00D, PID: 000BB003 FPB -- CPU_ReadMem(16 bytes @ 0xE0000FF0) -- CPU_ReadMem(16 bytes @ 0xE0000FE0)ROMTbl 0 [3]: FFF01000, CID: B105E00D, PID: 001BB001 ITM -- CPU_ReadMem(16 bytes @ 0xE00FF010) -- CPU_ReadMem(16 bytes @ 0xE0040FF0) -- CPU_ReadMem(16 bytes @ 0xE0040FE0)
ROMTbl 0 [4]: FFF41000, CID: B105900D, PID: 001BB923 TPIU-Lite ScanLen=9 NumDevices=2 aId[0]=0x3BA00477 aIrRead[0]=0 aScanLen[0]=0 aScanRead[0]=0 (0095ms, 0287ms total)
T16CC 000:326 JLINK_JTAG_GetDeviceID(DeviceIndex = 0)  returns 0x3BA00477 (0000ms, 0287ms total)
T16CC 000:326 JLINK_JTAG_GetDeviceInfo(DeviceIndex = 0)  returns 0x00 (0000ms, 0287ms total)
T16CC 000:326 JLINK_JTAG_GetDeviceID(DeviceIndex = 1)  returns 0x16410041 (0000ms, 0287ms total)
T16CC 000:326 JLINK_JTAG_GetDeviceInfo(DeviceIndex = 1)  returns 0x00 (0000ms, 0287ms total)
T16CC 000:326 JLINK_GetDLLVersion()  returns 61201 (0000ms, 0287ms total)
T16CC 000:326 JLINK_CORE_GetFound()  returns 0x30000FF (0000ms, 0287ms total)
T16CC 000:326 JLINK_GetDebugInfo(0x100) -- Value=0xE00FF003  returns 0x00 (0000ms, 0287ms total)
T16CC 000:327 JLINK_GetDebugInfo(0x100) -- Value=0xE00FF003  returns 0x00 (0000ms, 0287ms total)
T16CC 000:327 JLINK_GetDebugInfo(0x101) -- Value=0x00000000  returns 0x00 (0000ms, 0287ms total)
T16CC 000:327 JLINK_ReadMem (0xE0041FF0, 0x0010 Bytes, ...) -- CPU is running -- CPU_ReadMem(16 bytes @ 0xE0041FF0) - Data: 00 00 00 00 00 00 00 00 00 00 00 00 00 00 00 00  returns 0x00 (0001ms, 0288ms total)
T16CC 000:328 JLINK_GetDebugInfo(0x102) -- Value=0x00000000  returns 0x00 (0000ms, 0288ms total)
T16CC 000:328 JLINK_GetDebugInfo(0x103) -- Value=0xE0040000  returns 0x00 (0000ms, 0288ms total)
T16CC 000:328 JLINK_GetDebugInfo(0x104) -- Value=0xE0000000  returns 0x00 (0000ms, 0288ms total)
T16CC 000:328 JLINK_GetDebugInfo(0x105) -- Value=0xE0001000  returns 0x00 (0000ms, 0288ms total)
T16CC 000:328 JLINK_GetDebugInfo(0x106) -- Value=0xE0002000  returns 0x00 (0000ms, 0288ms total)
T16CC 000:328 JLINK_GetDebugInfo(0x107) -- Value=0xE000E000  returns 0x00 (0000ms, 0288ms total)
T16CC 000:328 JLINK_GetDebugInfo(0x10C) -- Value=0xE000EDF0  returns 0x00 (0000ms, 0288ms total)
T16CC 000:328 JLINK_ReadMemU32(0xE000ED00, 0x0001 Items, ...) -- CPU is running -- CPU_ReadMem(4 bytes @ 0xE000ED00) - Data: 31 C2 1F 41  returns 0x01 (0001ms, 0289ms total)
T16CC 000:329 JLINK_SetResetType(JLINKARM_CM3_RESET_TYPE_NORMAL)  returns JLINKARM_CM3_RESET_TYPE_NORMAL (0000ms, 0289ms total)
T16CC 000:329 JLINK_Reset() -- CPU is running -- CPU_WriteMem(4 bytes @ 0xE000EDF0) -- CPU is running -- CPU_WriteMem(4 bytes @ 0xE000EDFC) -- CPU is running -- CPU_WriteMem(4 bytes @ 0xE000ED0C) -- CPU is running -- CPU_ReadMem(4 bytes @ 0xE000EDF0) -- CPU is running -- CPU_ReadMem(4 bytes @ 0xE000EDF0) -- CPU is running -- CPU_WriteMem(4 bytes @ 0xE000EDF0) -- CPU is running -- CPU_WriteMem(4 bytes @ 0xE000EDFC) -- CPU is running -- CPU_ReadMem(4 bytes @ 0xE000EDF0) >0x80 JTAG> >0x40 JTAG> >0x30 JTAG>
 >0x40 JTAG> >0x50 JTAG> >0x40 JTAG> -- CPU_WriteMem(4 bytes @ 0xE000EDFC) -- CPU_WriteMem(4 bytes @ 0xE0001028) -- CPU_WriteMem(4 bytes @ 0xE0001038) -- CPU_WriteMem(4 bytes @ 0xE0001048) -- CPU_WriteMem(4 bytes @ 0xE0001058) -- CPU_WriteMem(4 bytes @ 0xE0002000) -- CPU_ReadMem(4 bytes @ 0xE000EDFC) -- CPU_ReadMem(4 bytes @ 0xE0001000) (0035ms, 0324ms total)
T16CC 000:365 JLINK_Halt()  returns 0x00 (0000ms, 0324ms total)
T16CC 000:365 JLINK_IsHalted()  returns TRUE (0000ms, 0324ms total)
T16CC 000:365 JLINK_ReadMemU32(0xE000EDF0, 0x0001 Items, ...) -- CPU_ReadMem(4 bytes @ 0xE000EDF0) - Data: 03 00 03 00  returns 0x01 (0000ms, 0324ms total)
T16CC 000:365 JLINK_WriteU32(0xE000EDF0, 0xA05F0003) -- CPU_WriteMem(4 bytes @ 0xE000EDF0)  returns 0x00 (0001ms, 0325ms total)
T16CC 000:366 JLINK_WriteU32(0xE000EDFC, 0x01000000) -- CPU_WriteMem(4 bytes @ 0xE000EDFC)  returns 0x00 (0001ms, 0326ms total)
T16CC 000:380 JLINK_GetHWStatus(...)  returns 0x00 (0001ms, 0327ms total)
T16CC 000:389 JLINK_GetNumBPUnits(Type = 0xFFFFFF00)  returns 0x06 (0000ms, 0327ms total)
T16CC 000:389 JLINK_GetNumBPUnits(Type = 0xF0)  returns 0x2000 (0000ms, 0327ms total)
T16CC 000:389 JLINK_GetNumWPUnits()  returns 0x04 (0000ms, 0327ms total)
T16CC 000:397 JLINK_GetSpeed()  returns 0x3A98 (0000ms, 0327ms total)
T16CC 000:401 JLINK_ReadMemU32(0xE000E004, 0x0001 Items, ...) -- CPU_ReadMem(4 bytes @ 0xE000E004) - Data: 01 00 00 00  returns 0x01 (0002ms, 0329ms total)
T16CC 000:403 JLINK_ReadMemU32(0xE000E004, 0x0001 Items, ...) -- CPU_ReadMem(4 bytes @ 0xE000E004) - Data: 01 00 00 00  returns 0x01 (0001ms, 0330ms total)
T16CC 000:404 JLINK_WriteMem(0xE0001000, 0x001C Bytes, ...) - Data: 01 00 00 00 00 00 00 00 00 00 00 00 00 00 00 00 ... -- CPU_WriteMem(28 bytes @ 0xE0001000)  returns 0x1C (0002ms, 0332ms total)
T16CC 000:406 JLINK_ReadMem (0xE0001000, 0x001C Bytes, ...) -- CPU_ReadMem(28 bytes @ 0xE0001000) - Data: 01 00 00 40 00 00 00 00 00 00 00 00 00 00 00 00 ...  returns 0x00 (0001ms, 0333ms total)
T16CC 000:407 JLINK_Halt()  returns 0x00 (0000ms, 0333ms total)
T16CC 000:407 JLINK_IsHalted()  returns TRUE (0000ms, 0333ms total)
T16CC 000:410 JLINK_WriteMem(0x20000000, 0x0164 Bytes, ...) - Data: 00 BE 0A E0 0D 78 2D 06 68 40 08 24 40 00 00 D3 ... -- CPU_WriteMem(356 bytes @ 0x20000000)  returns 0x164 (0002ms, 0335ms total)
T16CC 000:412 JLINK_WriteReg(R0, 0x08000000)  returns 0x00 (0000ms, 0335ms total)
T16CC 000:412 JLINK_WriteReg(R1, 0x00B71B00)  returns 0x00 (0000ms, 0335ms total)
T16CC 000:412 JLINK_WriteReg(R2, 0x00000001)  returns 0x00 (0000ms, 0335ms total)
T16CC 000:412 JLINK_WriteReg(R3, 0x00000000)  returns 0x00 (0000ms, 0335ms total)
T16CC 000:412 JLINK_WriteReg(R4, 0x00000000)  returns 0x00 (0000ms, 0335ms total)
T16CC 000:412 JLINK_WriteReg(R5, 0x00000000)  returns 0x00 (0000ms, 0335ms total)
T16CC 000:412 JLINK_WriteReg(R6, 0x00000000)  returns 0x00 (0000ms, 0335ms total)
T16CC 000:412 JLINK_WriteReg(R7, 0x00000000)  returns 0x00 (0000ms, 0335ms total)
T16CC 000:413 JLINK_WriteReg(R8, 0x00000000)  returns 0x00 (0000ms, 0336ms total)
T16CC 000:413 JLINK_WriteReg(R9, 0x20000160)  returns 0x00 (0000ms, 0336ms total)
T16CC 000:413 JLINK_WriteReg(R10, 0x00000000)  returns 0x00 (0000ms, 0336ms total)
T16CC 000:413 JLINK_WriteReg(R11, 0x00000000)  returns 0x00 (0000ms, 0336ms total)
T16CC 000:413 JLINK_WriteReg(R12, 0x00000000)  returns 0x00 (0000ms, 0336ms total)
T16CC 000:413 JLINK_WriteReg(R13 (SP), 0x20001000)  returns 0x00 (0000ms, 0336ms total)
T16CC 000:413 JLINK_WriteReg(R14, 0x20000001)  returns 0x00 (0000ms, 0336ms total)
T16CC 000:413 JLINK_WriteReg(R15 (PC), 0x20000038)  returns 0x00 (0000ms, 0336ms total)
T16CC 000:413 JLINK_WriteReg(XPSR, 0x01000000)  returns 0x00 (0000ms, 0336ms total)
T16CC 000:413 JLINK_WriteReg(MSP, 0x20001000)  returns 0x00 (0000ms, 0336ms total)
T16CC 000:413 JLINK_WriteReg(PSP, 0x20001000)  returns 0x00 (0000ms, 0336ms total)
T16CC 000:413 JLINK_WriteReg(CFBP, 0x00000000)  returns 0x00 (0000ms, 0336ms total)
T16CC 000:413 JLINK_SetBPEx(Addr = 0x20000000, Type = 0xFFFFFFF2) -- CPU_ReadMem(2 bytes @ 0x20000000)  returns 0x00000001 (0000ms, 0336ms total)
T16CC 000:413 JLINK_Go() -- CPU_WriteMem(2 bytes @ 0x20000000) -- CPU_ReadMem(4 bytes @ 0xE0001000) -- CPU_WriteMem(4 bytes @ 0xE0002008) -- CPU_WriteMem(4 bytes @ 0xE000200C) -- CPU_WriteMem(4 bytes @ 0xE0002010) -- CPU_WriteMem(4 bytes @ 0xE0002014) -- CPU_WriteMem(4 bytes @ 0xE0002018) -- CPU_WriteMem(4 bytes @ 0xE000201C) -- CPU_WriteMem(4 bytes @ 0xE0001004) (0006ms, 0342ms total)
T16CC 000:419 JLINK_IsHalted() -- CPU_ReadMem(2 bytes @ 0x20000000)  returns TRUE (0003ms, 0345ms total)
T16CC 000:422 JLINK_ReadReg(R15 (PC))  returns 0x20000000 (0000ms, 0342ms total)
T16CC 000:422 JLINK_ClrBPEx(BPHandle = 0x00000001)  returns 0x00 (0000ms, 0342ms total)
T16CC 000:422 JLINK_ReadReg(R0)  returns 0x00000000 (0000ms, 0342ms total)
T16CC 000:423 JLINK_WriteReg(R0, 0x08000000)  returns 0x00 (0000ms, 0342ms total)
T16CC 000:423 JLINK_WriteReg(R1, 0x00000400)  returns 0x00 (0000ms, 0342ms total)
T16CC 000:423 JLINK_WriteReg(R2, 0x000000FF)  returns 0x00 (0000ms, 0342ms total)
T16CC 000:423 JLINK_WriteReg(R3, 0x00000000)  returns 0x00 (0000ms, 0342ms total)
T16CC 000:423 JLINK_WriteReg(R4, 0x00000000)  returns 0x00 (0000ms, 0342ms total)
T16CC 000:423 JLINK_WriteReg(R5, 0x00000000)  returns 0x00 (0000ms, 0342ms total)
T16CC 000:423 JLINK_WriteReg(R6, 0x00000000)  returns 0x00 (0000ms, 0342ms total)
T16CC 000:423 JLINK_WriteReg(R7, 0x00000000)  returns 0x00 (0000ms, 0342ms total)
T16CC 000:423 JLINK_WriteReg(R8, 0x00000000)  returns 0x00 (0000ms, 0342ms total)
T16CC 000:423 JLINK_WriteReg(R9, 0x20000160)  returns 0x00 (0000ms, 0342ms total)
T16CC 000:423 JLINK_WriteReg(R10, 0x00000000)  returns 0x00 (0000ms, 0342ms total)
T16CC 000:423 JLINK_WriteReg(R11, 0x00000000)  returns 0x00 (0000ms, 0342ms total)
T16CC 000:423 JLINK_WriteReg(R12, 0x00000000)  returns 0x00 (0000ms, 0342ms total)
T16CC 000:423 JLINK_WriteReg(R13 (SP), 0x20001000)  returns 0x00 (0000ms, 0342ms total)
T16CC 000:423 JLINK_WriteReg(R14, 0x20000001)  returns 0x00 (0000ms, 0342ms total)
T16CC 000:423 JLINK_WriteReg(R15 (PC), 0x20000020)  returns 0x00 (0000ms, 0342ms total)
T16CC 000:423 JLINK_WriteReg(XPSR, 0x01000000)  returns 0x00 (0000ms, 0342ms total)
T16CC 000:423 JLINK_WriteReg(MSP, 0x20001000)  returns 0x00 (0000ms, 0342ms total)
T16CC 000:423 JLINK_WriteReg(PSP, 0x20001000)  returns 0x00 (0000ms, 0342ms total)
T16CC 000:423 JLINK_WriteReg(CFBP, 0x00000000)  returns 0x00 (0000ms, 0342ms total)
T16CC 000:423 JLINK_SetBPEx(Addr = 0x20000000, Type = 0xFFFFFFF2)  returns 0x00000002 (0000ms, 0342ms total)
T16CC 000:423 JLINK_Go() -- CPU_ReadMem(4 bytes @ 0xE0001000) (0003ms, 0345ms total)
T16CC 000:427 JLINK_IsHalted() -- CPU_ReadMem(2 bytes @ 0x20000000)  returns TRUE (0003ms, 0348ms total)
T16CC 000:430 JLINK_ReadReg(R15 (PC))  returns 0x20000000 (0000ms, 0345ms total)
T16CC 000:430 JLINK_ClrBPEx(BPHandle = 0x00000002)  returns 0x00 (0000ms, 0345ms total)
T16CC 000:430 JLINK_ReadReg(R0)  returns 0x00000001 (0000ms, 0345ms total)
T16CC 000:430 JLINK_WriteReg(R0, 0x08000000)  returns 0x00 (0000ms, 0345ms total)
T16CC 000:430 JLINK_WriteReg(R1, 0x00000400)  returns 0x00 (0000ms, 0345ms total)
T16CC 000:430 JLINK_WriteReg(R2, 0x000000FF)  returns 0x00 (0000ms, 0345ms total)
T16CC 000:430 JLINK_WriteReg(R3, 0x00000000)  returns 0x00 (0000ms, 0345ms total)
T16CC 000:430 JLINK_WriteReg(R4, 0x00000000)  returns 0x00 (0000ms, 0345ms total)
T16CC 000:430 JLINK_WriteReg(R5, 0x00000000)  returns 0x00 (0000ms, 0345ms total)
T16CC 000:430 JLINK_WriteReg(R6, 0x00000000)  returns 0x00 (0000ms, 0345ms total)
T16CC 000:430 JLINK_WriteReg(R7, 0x00000000)  returns 0x00 (0000ms, 0345ms total)
T16CC 000:430 JLINK_WriteReg(R8, 0x00000000)  returns 0x00 (0000ms, 0345ms total)
T16CC 000:430 JLINK_WriteReg(R9, 0x20000160)  returns 0x00 (0000ms, 0345ms total)
T16CC 000:430 JLINK_WriteReg(R10, 0x00000000)  returns 0x00 (0000ms, 0345ms total)
T16CC 000:430 JLINK_WriteReg(R11, 0x00000000)  returns 0x00 (0000ms, 0345ms total)
T16CC 000:430 JLINK_WriteReg(R12, 0x00000000)  returns 0x00 (0000ms, 0345ms total)
T16CC 000:430 JLINK_WriteReg(R13 (SP), 0x20001000)  returns 0x00 (0000ms, 0345ms total)
T16CC 000:430 JLINK_WriteReg(R14, 0x20000001)  returns 0x00 (0000ms, 0345ms total)
T16CC 000:430 JLINK_WriteReg(R15 (PC), 0x200000B6)  returns 0x00 (0000ms, 0345ms total)
T16CC 000:430 JLINK_WriteReg(XPSR, 0x01000000)  returns 0x00 (0000ms, 0345ms total)
T16CC 000:430 JLINK_WriteReg(MSP, 0x20001000)  returns 0x00 (0000ms, 0345ms total)
T16CC 000:430 JLINK_WriteReg(PSP, 0x20001000)  returns 0x00 (0000ms, 0345ms total)
T16CC 000:430 JLINK_WriteReg(CFBP, 0x00000000)  returns 0x00 (0000ms, 0345ms total)
T16CC 000:430 JLINK_SetBPEx(Addr = 0x20000000, Type = 0xFFFFFFF2)  returns 0x00000003 (0000ms, 0345ms total)
T16CC 000:430 JLINK_Go() -- CPU_ReadMem(4 bytes @ 0xE0001000) (0002ms, 0347ms total)
T16CC 000:433 JLINK_IsHalted()  returns FALSE (0000ms, 0347ms total)
T16CC 000:450 JLINK_IsHalted()  returns FALSE (0001ms, 0348ms total)
T16CC 000:452 JLINK_IsHalted()  returns FALSE (0001ms, 0348ms total)
T16CC 000:454 JLINK_IsHalted() -- CPU_ReadMem(2 bytes @ 0x20000000)  returns TRUE (0003ms, 0350ms total)
T16CC 000:457 JLINK_ReadReg(R15 (PC))  returns 0x20000000 (0000ms, 0347ms total)
T16CC 000:457 JLINK_ClrBPEx(BPHandle = 0x00000003)  returns 0x00 (0000ms, 0347ms total)
T16CC 000:457 JLINK_ReadReg(R0)  returns 0x00000000 (0000ms, 0347ms total)
T16CC 000:458 JLINK_WriteReg(R0, 0x08000400)  returns 0x00 (0000ms, 0347ms total)
T16CC 000:458 JLINK_WriteReg(R1, 0x00000400)  returns 0x00 (0000ms, 0347ms total)
T16CC 000:458 JLINK_WriteReg(R2, 0x000000FF)  returns 0x00 (0000ms, 0347ms total)
T16CC 000:458 JLINK_WriteReg(R3, 0x00000000)  returns 0x00 (0000ms, 0347ms total)
T16CC 000:458 JLINK_WriteReg(R4, 0x00000000)  returns 0x00 (0000ms, 0347ms total)
T16CC 000:458 JLINK_WriteReg(R5, 0x00000000)  returns 0x00 (0000ms, 0347ms total)
T16CC 000:458 JLINK_WriteReg(R6, 0x00000000)  returns 0x00 (0000ms, 0347ms total)
T16CC 000:458 JLINK_WriteReg(R7, 0x00000000)  returns 0x00 (0000ms, 0347ms total)
T16CC 000:458 JLINK_WriteReg(R8, 0x00000000)  returns 0x00 (0000ms, 0347ms total)
T16CC 000:458 JLINK_WriteReg(R9, 0x20000160)  returns 0x00 (0000ms, 0347ms total)
T16CC 000:458 JLINK_WriteReg(R10, 0x00000000)  returns 0x00 (0000ms, 0347ms total)
T16CC 000:458 JLINK_WriteReg(R11, 0x00000000)  returns 0x00 (0000ms, 0347ms total)
T16CC 000:458 JLINK_WriteReg(R12, 0x00000000)  returns 0x00 (0000ms, 0347ms total)
T16CC 000:458 JLINK_WriteReg(R13 (SP), 0x20001000)  returns 0x00 (0000ms, 0347ms total)
T16CC 000:458 JLINK_WriteReg(R14, 0x20000001)  returns 0x00 (0000ms, 0347ms total)
T16CC 000:458 JLINK_WriteReg(R15 (PC), 0x20000020)  returns 0x00 (0000ms, 0347ms total)
T16CC 000:458 JLINK_WriteReg(XPSR, 0x01000000)  returns 0x00 (0000ms, 0347ms total)
T16CC 000:458 JLINK_WriteReg(MSP, 0x20001000)  returns 0x00 (0000ms, 0347ms total)
T16CC 000:458 JLINK_WriteReg(PSP, 0x20001000)  returns 0x00 (0000ms, 0347ms total)
T16CC 000:458 JLINK_WriteReg(CFBP, 0x00000000)  returns 0x00 (0000ms, 0347ms total)
T16CC 000:458 JLINK_SetBPEx(Addr = 0x20000000, Type = 0xFFFFFFF2)  returns 0x00000004 (0000ms, 0347ms total)
T16CC 000:458 JLINK_Go() -- CPU_ReadMem(4 bytes @ 0xE0001000) (0004ms, 0351ms total)
T16CC 000:462 JLINK_IsHalted() -- CPU_ReadMem(2 bytes @ 0x20000000)  returns TRUE (0003ms, 0354ms total)
T16CC 000:465 JLINK_ReadReg(R15 (PC))  returns 0x20000000 (0000ms, 0351ms total)
T16CC 000:465 JLINK_ClrBPEx(BPHandle = 0x00000004)  returns 0x00 (0000ms, 0351ms total)
T16CC 000:465 JLINK_ReadReg(R0)  returns 0x00000001 (0000ms, 0351ms total)
T16CC 000:465 JLINK_WriteReg(R0, 0x08000400)  returns 0x00 (0000ms, 0351ms total)
T16CC 000:465 JLINK_WriteReg(R1, 0x00000400)  returns 0x00 (0000ms, 0351ms total)
T16CC 000:465 JLINK_WriteReg(R2, 0x000000FF)  returns 0x00 (0000ms, 0351ms total)
T16CC 000:465 JLINK_WriteReg(R3, 0x00000000)  returns 0x00 (0000ms, 0351ms total)
T16CC 000:465 JLINK_WriteReg(R4, 0x00000000)  returns 0x00 (0000ms, 0351ms total)
T16CC 000:465 JLINK_WriteReg(R5, 0x00000000)  returns 0x00 (0000ms, 0351ms total)
T16CC 000:465 JLINK_WriteReg(R6, 0x00000000)  returns 0x00 (0000ms, 0351ms total)
T16CC 000:465 JLINK_WriteReg(R7, 0x00000000)  returns 0x00 (0000ms, 0351ms total)
T16CC 000:465 JLINK_WriteReg(R8, 0x00000000)  returns 0x00 (0000ms, 0351ms total)
T16CC 000:465 JLINK_WriteReg(R9, 0x20000160)  returns 0x00 (0000ms, 0351ms total)
T16CC 000:465 JLINK_WriteReg(R10, 0x00000000)  returns 0x00 (0000ms, 0351ms total)
T16CC 000:465 JLINK_WriteReg(R11, 0x00000000)  returns 0x00 (0000ms, 0351ms total)
T16CC 000:465 JLINK_WriteReg(R12, 0x00000000)  returns 0x00 (0000ms, 0351ms total)
T16CC 000:465 JLINK_WriteReg(R13 (SP), 0x20001000)  returns 0x00 (0000ms, 0351ms total)
T16CC 000:465 JLINK_WriteReg(R14, 0x20000001)  returns 0x00 (0000ms, 0351ms total)
T16CC 000:465 JLINK_WriteReg(R15 (PC), 0x200000B6)  returns 0x00 (0000ms, 0351ms total)
T16CC 000:465 JLINK_WriteReg(XPSR, 0x01000000)  returns 0x00 (0000ms, 0351ms total)
T16CC 000:465 JLINK_WriteReg(MSP, 0x20001000)  returns 0x00 (0000ms, 0351ms total)
T16CC 000:465 JLINK_WriteReg(PSP, 0x20001000)  returns 0x00 (0000ms, 0351ms total)
T16CC 000:465 JLINK_WriteReg(CFBP, 0x00000000)  returns 0x00 (0000ms, 0351ms total)
T16CC 000:465 JLINK_SetBPEx(Addr = 0x20000000, Type = 0xFFFFFFF2)  returns 0x00000005 (0000ms, 0351ms total)
T16CC 000:465 JLINK_Go() -- CPU_ReadMem(4 bytes @ 0xE0001000) (0003ms, 0354ms total)
T16CC 000:468 JLINK_IsHalted()  returns FALSE (0001ms, 0355ms total)
T16CC 000:470 JLINK_IsHalted()  returns FALSE (0001ms, 0355ms total)
T16CC 000:472 JLINK_IsHalted()  returns FALSE (0001ms, 0355ms total)
T16CC 000:474 JLINK_IsHalted()  returns FALSE (0000ms, 0354ms total)
T16CC 000:475 JLINK_IsHalted()  returns FALSE (0000ms, 0354ms total)
T16CC 000:476 JLINK_IsHalted()  returns FALSE (0000ms, 0354ms total)
T16CC 000:477 JLINK_IsHalted()  returns FALSE (0001ms, 0355ms total)
T16CC 000:479 JLINK_IsHalted()  returns FALSE (0000ms, 0354ms total)
T16CC 000:480 JLINK_IsHalted()  returns FALSE (0000ms, 0354ms total)
T16CC 000:481 JLINK_IsHalted()  returns FALSE (0000ms, 0354ms total)
T16CC 000:482 JLINK_IsHalted()  returns FALSE (0000ms, 0354ms total)
T16CC 000:483 JLINK_IsHalted()  returns FALSE (0000ms, 0354ms total)
T16CC 000:484 JLINK_IsHalted()  returns FALSE (0000ms, 0354ms total)
T16CC 000:485 JLINK_IsHalted()  returns FALSE (0000ms, 0354ms total)
T16CC 000:486 JLINK_IsHalted()  returns FALSE (0001ms, 0355ms total)
T16CC 000:488 JLINK_IsHalted()  returns FALSE (0000ms, 0354ms total)
T16CC 000:489 JLINK_IsHalted() -- CPU_ReadMem(2 bytes @ 0x20000000)  returns TRUE (0002ms, 0356ms total)
T16CC 000:491 JLINK_ReadReg(R15 (PC))  returns 0x20000000 (0000ms, 0354ms total)
T16CC 000:491 JLINK_ClrBPEx(BPHandle = 0x00000005)  returns 0x00 (0000ms, 0354ms total)
T16CC 000:491 JLINK_ReadReg(R0)  returns 0x00000000 (0000ms, 0354ms total)
T16CC 000:491 JLINK_WriteReg(R0, 0x08000800)  returns 0x00 (0000ms, 0354ms total)
T16CC 000:491 JLINK_WriteReg(R1, 0x00000400)  returns 0x00 (0000ms, 0354ms total)
T16CC 000:491 JLINK_WriteReg(R2, 0x000000FF)  returns 0x00 (0000ms, 0354ms total)
T16CC 000:491 JLINK_WriteReg(R3, 0x00000000)  returns 0x00 (0001ms, 0355ms total)
T16CC 000:492 JLINK_WriteReg(R4, 0x00000000)  returns 0x00 (0000ms, 0355ms total)
T16CC 000:492 JLINK_WriteReg(R5, 0x00000000)  returns 0x00 (0000ms, 0355ms total)
T16CC 000:492 JLINK_WriteReg(R6, 0x00000000)  returns 0x00 (0000ms, 0355ms total)
T16CC 000:492 JLINK_WriteReg(R7, 0x00000000)  returns 0x00 (0000ms, 0355ms total)
T16CC 000:492 JLINK_WriteReg(R8, 0x00000000)  returns 0x00 (0000ms, 0355ms total)
T16CC 000:492 JLINK_WriteReg(R9, 0x20000160)  returns 0x00 (0000ms, 0355ms total)
T16CC 000:492 JLINK_WriteReg(R10, 0x00000000)  returns 0x00 (0000ms, 0355ms total)
T16CC 000:492 JLINK_WriteReg(R11, 0x00000000)  returns 0x00 (0000ms, 0355ms total)
T16CC 000:492 JLINK_WriteReg(R12, 0x00000000)  returns 0x00 (0000ms, 0355ms total)
T16CC 000:492 JLINK_WriteReg(R13 (SP), 0x20001000)  returns 0x00 (0000ms, 0355ms total)
T16CC 000:492 JLINK_WriteReg(R14, 0x20000001)  returns 0x00 (0000ms, 0355ms total)
T16CC 000:492 JLINK_WriteReg(R15 (PC), 0x20000020)  returns 0x00 (0000ms, 0355ms total)
T16CC 000:492 JLINK_WriteReg(XPSR, 0x01000000)  returns 0x00 (0000ms, 0355ms total)
T16CC 000:492 JLINK_WriteReg(MSP, 0x20001000)  returns 0x00 (0000ms, 0355ms total)
T16CC 000:492 JLINK_WriteReg(PSP, 0x20001000)  returns 0x00 (0000ms, 0355ms total)
T16CC 000:492 JLINK_WriteReg(CFBP, 0x00000000)  returns 0x00 (0000ms, 0355ms total)
T16CC 000:492 JLINK_SetBPEx(Addr = 0x20000000, Type = 0xFFFFFFF2)  returns 0x00000006 (0000ms, 0355ms total)
T16CC 000:492 JLINK_Go() -- CPU_ReadMem(4 bytes @ 0xE0001000) (0003ms, 0358ms total)
T16CC 000:495 JLINK_IsHalted() -- CPU_ReadMem(2 bytes @ 0x20000000)  returns TRUE (0003ms, 0361ms total)
T16CC 000:498 JLINK_ReadReg(R15 (PC))  returns 0x20000000 (0000ms, 0358ms total)
T16CC 000:498 JLINK_ClrBPEx(BPHandle = 0x00000006)  returns 0x00 (0000ms, 0358ms total)
T16CC 000:498 JLINK_ReadReg(R0)  returns 0x00000001 (0000ms, 0358ms total)
T16CC 000:498 JLINK_WriteReg(R0, 0x08000800)  returns 0x00 (0000ms, 0358ms total)
T16CC 000:498 JLINK_WriteReg(R1, 0x00000400)  returns 0x00 (0000ms, 0358ms total)
T16CC 000:498 JLINK_WriteReg(R2, 0x000000FF)  returns 0x00 (0000ms, 0358ms total)
T16CC 000:498 JLINK_WriteReg(R3, 0x00000000)  returns 0x00 (0000ms, 0358ms total)
T16CC 000:498 JLINK_WriteReg(R4, 0x00000000)  returns 0x00 (0000ms, 0358ms total)
T16CC 000:498 JLINK_WriteReg(R5, 0x00000000)  returns 0x00 (0000ms, 0358ms total)
T16CC 000:498 JLINK_WriteReg(R6, 0x00000000)  returns 0x00 (0000ms, 0358ms total)
T16CC 000:498 JLINK_WriteReg(R7, 0x00000000)  returns 0x00 (0000ms, 0358ms total)
T16CC 000:498 JLINK_WriteReg(R8, 0x00000000)  returns 0x00 (0000ms, 0358ms total)
T16CC 000:498 JLINK_WriteReg(R9, 0x20000160)  returns 0x00 (0000ms, 0358ms total)
T16CC 000:498 JLINK_WriteReg(R10, 0x00000000)  returns 0x00 (0000ms, 0358ms total)
T16CC 000:498 JLINK_WriteReg(R11, 0x00000000)  returns 0x00 (0000ms, 0358ms total)
T16CC 000:498 JLINK_WriteReg(R12, 0x00000000)  returns 0x00 (0001ms, 0359ms total)
T16CC 000:499 JLINK_WriteReg(R13 (SP), 0x20001000)  returns 0x00 (0000ms, 0359ms total)
T16CC 000:499 JLINK_WriteReg(R14, 0x20000001)  returns 0x00 (0000ms, 0359ms total)
T16CC 000:499 JLINK_WriteReg(R15 (PC), 0x200000B6)  returns 0x00 (0000ms, 0359ms total)
T16CC 000:499 JLINK_WriteReg(XPSR, 0x01000000)  returns 0x00 (0000ms, 0359ms total)
T16CC 000:499 JLINK_WriteReg(MSP, 0x20001000)  returns 0x00 (0000ms, 0359ms total)
T16CC 000:499 JLINK_WriteReg(PSP, 0x20001000)  returns 0x00 (0000ms, 0359ms total)
T16CC 000:499 JLINK_WriteReg(CFBP, 0x00000000)  returns 0x00 (0000ms, 0359ms total)
T16CC 000:499 JLINK_SetBPEx(Addr = 0x20000000, Type = 0xFFFFFFF2)  returns 0x00000007 (0000ms, 0359ms total)
T16CC 000:499 JLINK_Go() -- CPU_ReadMem(4 bytes @ 0xE0001000) (0002ms, 0361ms total)
T16CC 000:501 JLINK_IsHalted()  returns FALSE (0001ms, 0362ms total)
T16CC 000:503 JLINK_IsHalted()  returns FALSE (0000ms, 0361ms total)
T16CC 000:504 JLINK_IsHalted()  returns FALSE (0000ms, 0361ms total)
T16CC 000:505 JLINK_IsHalted()  returns FALSE (0000ms, 0361ms total)
T16CC 000:506 JLINK_IsHalted()  returns FALSE (0000ms, 0361ms total)
T16CC 000:507 JLINK_IsHalted()  returns FALSE (0000ms, 0361ms total)
T16CC 000:508 JLINK_IsHalted()  returns FALSE (0000ms, 0361ms total)
T16CC 000:509 JLINK_IsHalted()  returns FALSE (0000ms, 0361ms total)
T16CC 000:510 JLINK_IsHalted()  returns FALSE (0000ms, 0361ms total)
T16CC 000:511 JLINK_IsHalted()  returns FALSE (0000ms, 0361ms total)
T16CC 000:512 JLINK_IsHalted()  returns FALSE (0000ms, 0361ms total)
T16CC 000:513 JLINK_IsHalted()  returns FALSE (0000ms, 0361ms total)
T16CC 000:514 JLINK_IsHalted()  returns FALSE (0000ms, 0361ms total)
T16CC 000:515 JLINK_IsHalted()  returns FALSE (0000ms, 0361ms total)
T16CC 000:516 JLINK_IsHalted()  returns FALSE (0000ms, 0361ms total)
T16CC 000:517 JLINK_IsHalted()  returns FALSE (0000ms, 0361ms total)
T16CC 000:518 JLINK_IsHalted()  returns FALSE (0000ms, 0361ms total)
T16CC 000:519 JLINK_IsHalted()  returns FALSE (0000ms, 0361ms total)
T16CC 000:520 JLINK_IsHalted()  returns FALSE (0000ms, 0361ms total)
T16CC 000:521 JLINK_IsHalted()  returns FALSE (0000ms, 0361ms total)
T16CC 000:522 JLINK_IsHalted()  returns FALSE (0000ms, 0361ms total)
T16CC 000:523 JLINK_IsHalted() -- CPU_ReadMem(2 bytes @ 0x20000000)  returns TRUE (0002ms, 0363ms total)
T16CC 000:525 JLINK_ReadReg(R15 (PC))  returns 0x20000000 (0000ms, 0361ms total)
T16CC 000:525 JLINK_ClrBPEx(BPHandle = 0x00000007)  returns 0x00 (0000ms, 0361ms total)
T16CC 000:525 JLINK_ReadReg(R0)  returns 0x00000000 (0000ms, 0361ms total)
T16CC 000:526 JLINK_WriteReg(R0, 0x08000C00)  returns 0x00 (0000ms, 0361ms total)
T16CC 000:526 JLINK_WriteReg(R1, 0x00000400)  returns 0x00 (0000ms, 0361ms total)
T16CC 000:526 JLINK_WriteReg(R2, 0x000000FF)  returns 0x00 (0000ms, 0361ms total)
T16CC 000:526 JLINK_WriteReg(R3, 0x00000000)  returns 0x00 (0000ms, 0361ms total)
T16CC 000:526 JLINK_WriteReg(R4, 0x00000000)  returns 0x00 (0000ms, 0361ms total)
T16CC 000:526 JLINK_WriteReg(R5, 0x00000000)  returns 0x00 (0000ms, 0361ms total)
T16CC 000:526 JLINK_WriteReg(R6, 0x00000000)  returns 0x00 (0000ms, 0361ms total)
T16CC 000:526 JLINK_WriteReg(R7, 0x00000000)  returns 0x00 (0000ms, 0361ms total)
T16CC 000:526 JLINK_WriteReg(R8, 0x00000000)  returns 0x00 (0000ms, 0361ms total)
T16CC 000:526 JLINK_WriteReg(R9, 0x20000160)  returns 0x00 (0001ms, 0362ms total)
T16CC 000:527 JLINK_WriteReg(R10, 0x00000000)  returns 0x00 (0000ms, 0362ms total)
T16CC 000:527 JLINK_WriteReg(R11, 0x00000000)  returns 0x00 (0000ms, 0362ms total)
T16CC 000:527 JLINK_WriteReg(R12, 0x00000000)  returns 0x00 (0000ms, 0362ms total)
T16CC 000:527 JLINK_WriteReg(R13 (SP), 0x20001000)  returns 0x00 (0000ms, 0362ms total)
T16CC 000:527 JLINK_WriteReg(R14, 0x20000001)  returns 0x00 (0000ms, 0362ms total)
T16CC 000:527 JLINK_WriteReg(R15 (PC), 0x20000020)  returns 0x00 (0000ms, 0362ms total)
T16CC 000:527 JLINK_WriteReg(XPSR, 0x01000000)  returns 0x00 (0000ms, 0362ms total)
T16CC 000:527 JLINK_WriteReg(MSP, 0x20001000)  returns 0x00 (0000ms, 0362ms total)
T16CC 000:527 JLINK_WriteReg(PSP, 0x20001000)  returns 0x00 (0000ms, 0362ms total)
T16CC 000:527 JLINK_WriteReg(CFBP, 0x00000000)  returns 0x00 (0000ms, 0362ms total)
T16CC 000:527 JLINK_SetBPEx(Addr = 0x20000000, Type = 0xFFFFFFF2)  returns 0x00000008 (0000ms, 0362ms total)
T16CC 000:527 JLINK_Go() -- CPU_ReadMem(4 bytes @ 0xE0001000) (0003ms, 0365ms total)
T16CC 000:530 JLINK_IsHalted() -- CPU_ReadMem(2 bytes @ 0x20000000)  returns TRUE (0003ms, 0368ms total)
T16CC 000:533 JLINK_ReadReg(R15 (PC))  returns 0x20000000 (0001ms, 0366ms total)
T16CC 000:534 JLINK_ClrBPEx(BPHandle = 0x00000008)  returns 0x00 (0000ms, 0366ms total)
T16CC 000:534 JLINK_ReadReg(R0)  returns 0x00000001 (0000ms, 0366ms total)
T16CC 000:534 JLINK_WriteReg(R0, 0x08000C00)  returns 0x00 (0000ms, 0366ms total)
T16CC 000:534 JLINK_WriteReg(R1, 0x00000400)  returns 0x00 (0000ms, 0366ms total)
T16CC 000:534 JLINK_WriteReg(R2, 0x000000FF)  returns 0x00 (0000ms, 0366ms total)
T16CC 000:534 JLINK_WriteReg(R3, 0x00000000)  returns 0x00 (0000ms, 0366ms total)
T16CC 000:534 JLINK_WriteReg(R4, 0x00000000)  returns 0x00 (0000ms, 0366ms total)
T16CC 000:534 JLINK_WriteReg(R5, 0x00000000)  returns 0x00 (0000ms, 0366ms total)
T16CC 000:534 JLINK_WriteReg(R6, 0x00000000)  returns 0x00 (0000ms, 0366ms total)
T16CC 000:534 JLINK_WriteReg(R7, 0x00000000)  returns 0x00 (0000ms, 0366ms total)
T16CC 000:534 JLINK_WriteReg(R8, 0x00000000)  returns 0x00 (0000ms, 0366ms total)
T16CC 000:534 JLINK_WriteReg(R9, 0x20000160)  returns 0x00 (0000ms, 0366ms total)
T16CC 000:534 JLINK_WriteReg(R10, 0x00000000)  returns 0x00 (0000ms, 0366ms total)
T16CC 000:534 JLINK_WriteReg(R11, 0x00000000)  returns 0x00 (0000ms, 0366ms total)
T16CC 000:534 JLINK_WriteReg(R12, 0x00000000)  returns 0x00 (0000ms, 0366ms total)
T16CC 000:534 JLINK_WriteReg(R13 (SP), 0x20001000)  returns 0x00 (0000ms, 0366ms total)
T16CC 000:534 JLINK_WriteReg(R14, 0x20000001)  returns 0x00 (0000ms, 0366ms total)
T16CC 000:534 JLINK_WriteReg(R15 (PC), 0x200000B6)  returns 0x00 (0001ms, 0367ms total)
T16CC 000:535 JLINK_WriteReg(XPSR, 0x01000000)  returns 0x00 (0000ms, 0367ms total)
T16CC 000:535 JLINK_WriteReg(MSP, 0x20001000)  returns 0x00 (0000ms, 0367ms total)
T16CC 000:535 JLINK_WriteReg(PSP, 0x20001000)  returns 0x00 (0000ms, 0367ms total)
T16CC 000:535 JLINK_WriteReg(CFBP, 0x00000000)  returns 0x00 (0000ms, 0367ms total)
T16CC 000:535 JLINK_SetBPEx(Addr = 0x20000000, Type = 0xFFFFFFF2)  returns 0x00000009 (0000ms, 0367ms total)
T16CC 000:535 JLINK_Go() -- CPU_ReadMem(4 bytes @ 0xE0001000) (0003ms, 0370ms total)
T16CC 000:538 JLINK_IsHalted()  returns FALSE (0001ms, 0371ms total)
T16CC 000:542 JLINK_IsHalted()  returns FALSE (0001ms, 0371ms total)
T16CC 000:544 JLINK_IsHalted()  returns FALSE (0001ms, 0371ms total)
T16CC 000:546 JLINK_IsHalted()  returns FALSE (0000ms, 0370ms total)
T16CC 000:547 JLINK_IsHalted()  returns FALSE (0001ms, 0371ms total)
T16CC 000:549 JLINK_IsHalted()  returns FALSE (0001ms, 0371ms total)
T16CC 000:554 JLINK_IsHalted()  returns FALSE (0001ms, 0371ms total)
T16CC 000:556 JLINK_IsHalted()  returns FALSE (0001ms, 0371ms total)
T16CC 000:558 JLINK_IsHalted()  returns FALSE (0001ms, 0371ms total)
T16CC 000:560 JLINK_IsHalted() -- CPU_ReadMem(2 bytes @ 0x20000000)  returns TRUE (0003ms, 0373ms total)
T16CC 000:563 JLINK_ReadReg(R15 (PC))  returns 0x20000000 (0000ms, 0370ms total)
T16CC 000:563 JLINK_ClrBPEx(BPHandle = 0x00000009)  returns 0x00 (0000ms, 0370ms total)
T16CC 000:563 JLINK_ReadReg(R0)  returns 0x00000000 (0000ms, 0370ms total)
T16CC 000:564 JLINK_WriteReg(R0, 0x08001000)  returns 0x00 (0000ms, 0370ms total)
T16CC 000:564 JLINK_WriteReg(R1, 0x00000400)  returns 0x00 (0000ms, 0370ms total)
T16CC 000:564 JLINK_WriteReg(R2, 0x000000FF)  returns 0x00 (0000ms, 0370ms total)
T16CC 000:564 JLINK_WriteReg(R3, 0x00000000)  returns 0x00 (0000ms, 0370ms total)
T16CC 000:564 JLINK_WriteReg(R4, 0x00000000)  returns 0x00 (0000ms, 0370ms total)
T16CC 000:564 JLINK_WriteReg(R5, 0x00000000)  returns 0x00 (0001ms, 0371ms total)
T16CC 000:565 JLINK_WriteReg(R6, 0x00000000)  returns 0x00 (0000ms, 0371ms total)
T16CC 000:565 JLINK_WriteReg(R7, 0x00000000)  returns 0x00 (0000ms, 0371ms total)
T16CC 000:565 JLINK_WriteReg(R8, 0x00000000)  returns 0x00 (0000ms, 0371ms total)
T16CC 000:565 JLINK_WriteReg(R9, 0x20000160)  returns 0x00 (0000ms, 0371ms total)
T16CC 000:565 JLINK_WriteReg(R10, 0x00000000)  returns 0x00 (0000ms, 0371ms total)
T16CC 000:565 JLINK_WriteReg(R11, 0x00000000)  returns 0x00 (0000ms, 0371ms total)
T16CC 000:565 JLINK_WriteReg(R12, 0x00000000)  returns 0x00 (0000ms, 0371ms total)
T16CC 000:565 JLINK_WriteReg(R13 (SP), 0x20001000)  returns 0x00 (0000ms, 0371ms total)
T16CC 000:565 JLINK_WriteReg(R14, 0x20000001)  returns 0x00 (0000ms, 0371ms total)
T16CC 000:565 JLINK_WriteReg(R15 (PC), 0x20000020)  returns 0x00 (0000ms, 0371ms total)
T16CC 000:565 JLINK_WriteReg(XPSR, 0x01000000)  returns 0x00 (0000ms, 0371ms total)
T16CC 000:565 JLINK_WriteReg(MSP, 0x20001000)  returns 0x00 (0000ms, 0371ms total)
T16CC 000:565 JLINK_WriteReg(PSP, 0x20001000)  returns 0x00 (0000ms, 0371ms total)
T16CC 000:565 JLINK_WriteReg(CFBP, 0x00000000)  returns 0x00 (0000ms, 0371ms total)
T16CC 000:565 JLINK_SetBPEx(Addr = 0x20000000, Type = 0xFFFFFFF2)  returns 0x0000000A (0000ms, 0371ms total)
T16CC 000:565 JLINK_Go() -- CPU_ReadMem(4 bytes @ 0xE0001000) (0004ms, 0375ms total)
T16CC 000:569 JLINK_IsHalted() -- CPU_ReadMem(2 bytes @ 0x20000000)  returns TRUE (0003ms, 0378ms total)
T16CC 000:572 JLINK_ReadReg(R15 (PC))  returns 0x20000000 (0000ms, 0375ms total)
T16CC 000:572 JLINK_ClrBPEx(BPHandle = 0x0000000A)  returns 0x00 (0000ms, 0375ms total)
T16CC 000:572 JLINK_ReadReg(R0)  returns 0x00000001 (0000ms, 0375ms total)
T16CC 000:572 JLINK_WriteReg(R0, 0x08001000)  returns 0x00 (0000ms, 0375ms total)
T16CC 000:572 JLINK_WriteReg(R1, 0x00000400)  returns 0x00 (0000ms, 0375ms total)
T16CC 000:572 JLINK_WriteReg(R2, 0x000000FF)  returns 0x00 (0000ms, 0375ms total)
T16CC 000:572 JLINK_WriteReg(R3, 0x00000000)  returns 0x00 (0000ms, 0375ms total)
T16CC 000:572 JLINK_WriteReg(R4, 0x00000000)  returns 0x00 (0000ms, 0375ms total)
T16CC 000:572 JLINK_WriteReg(R5, 0x00000000)  returns 0x00 (0001ms, 0376ms total)
T16CC 000:573 JLINK_WriteReg(R6, 0x00000000)  returns 0x00 (0000ms, 0376ms total)
T16CC 000:573 JLINK_WriteReg(R7, 0x00000000)  returns 0x00 (0000ms, 0376ms total)
T16CC 000:573 JLINK_WriteReg(R8, 0x00000000)  returns 0x00 (0000ms, 0376ms total)
T16CC 000:573 JLINK_WriteReg(R9, 0x20000160)  returns 0x00 (0000ms, 0376ms total)
T16CC 000:573 JLINK_WriteReg(R10, 0x00000000)  returns 0x00 (0000ms, 0376ms total)
T16CC 000:573 JLINK_WriteReg(R11, 0x00000000)  returns 0x00 (0000ms, 0376ms total)
T16CC 000:573 JLINK_WriteReg(R12, 0x00000000)  returns 0x00 (0000ms, 0376ms total)
T16CC 000:573 JLINK_WriteReg(R13 (SP), 0x20001000)  returns 0x00 (0000ms, 0376ms total)
T16CC 000:573 JLINK_WriteReg(R14, 0x20000001)  returns 0x00 (0000ms, 0376ms total)
T16CC 000:573 JLINK_WriteReg(R15 (PC), 0x200000B6)  returns 0x00 (0000ms, 0376ms total)
T16CC 000:573 JLINK_WriteReg(XPSR, 0x01000000)  returns 0x00 (0000ms, 0376ms total)
T16CC 000:573 JLINK_WriteReg(MSP, 0x20001000)  returns 0x00 (0000ms, 0376ms total)
T16CC 000:573 JLINK_WriteReg(PSP, 0x20001000)  returns 0x00 (0000ms, 0376ms total)
T16CC 000:573 JLINK_WriteReg(CFBP, 0x00000000)  returns 0x00 (0000ms, 0376ms total)
T16CC 000:573 JLINK_SetBPEx(Addr = 0x20000000, Type = 0xFFFFFFF2)  returns 0x0000000B (0000ms, 0376ms total)
T16CC 000:573 JLINK_Go() -- CPU_ReadMem(4 bytes @ 0xE0001000) (0004ms, 0380ms total)
T16CC 000:577 JLINK_IsHalted()  returns FALSE (0001ms, 0381ms total)
T16CC 000:579 JLINK_IsHalted()  returns FALSE (0001ms, 0381ms total)
T16CC 000:581 JLINK_IsHalted()  returns FALSE (0001ms, 0381ms total)
T16CC 000:583 JLINK_IsHalted()  returns FALSE (0001ms, 0381ms total)
T16CC 000:585 JLINK_IsHalted()  returns FALSE (0001ms, 0381ms total)
T16CC 000:587 JLINK_IsHalted()  returns FALSE (0001ms, 0381ms total)
T16CC 000:589 JLINK_IsHalted()  returns FALSE (0001ms, 0381ms total)
T16CC 000:591 JLINK_IsHalted()  returns FALSE (0001ms, 0381ms total)
T16CC 000:593 JLINK_IsHalted()  returns FALSE (0001ms, 0381ms total)
T16CC 000:595 JLINK_IsHalted()  returns FALSE (0001ms, 0381ms total)
T16CC 000:597 JLINK_IsHalted()  returns FALSE (0001ms, 0381ms total)
T16CC 000:599 JLINK_IsHalted() -- CPU_ReadMem(2 bytes @ 0x20000000)  returns TRUE (0003ms, 0383ms total)
T16CC 000:602 JLINK_ReadReg(R15 (PC))  returns 0x20000000 (0000ms, 0380ms total)
T16CC 000:602 JLINK_ClrBPEx(BPHandle = 0x0000000B)  returns 0x00 (0000ms, 0380ms total)
T16CC 000:602 JLINK_ReadReg(R0)  returns 0x00000000 (0000ms, 0380ms total)
T16CC 000:603 JLINK_WriteReg(R0, 0x08001400)  returns 0x00 (0000ms, 0380ms total)
T16CC 000:603 JLINK_WriteReg(R1, 0x00000400)  returns 0x00 (0000ms, 0380ms total)
T16CC 000:603 JLINK_WriteReg(R2, 0x000000FF)  returns 0x00 (0000ms, 0380ms total)
T16CC 000:603 JLINK_WriteReg(R3, 0x00000000)  returns 0x00 (0000ms, 0380ms total)
T16CC 000:603 JLINK_WriteReg(R4, 0x00000000)  returns 0x00 (0000ms, 0380ms total)
T16CC 000:603 JLINK_WriteReg(R5, 0x00000000)  returns 0x00 (0000ms, 0380ms total)
T16CC 000:603 JLINK_WriteReg(R6, 0x00000000)  returns 0x00 (0000ms, 0380ms total)
T16CC 000:603 JLINK_WriteReg(R7, 0x00000000)  returns 0x00 (0001ms, 0381ms total)
T16CC 000:604 JLINK_WriteReg(R8, 0x00000000)  returns 0x00 (0000ms, 0381ms total)
T16CC 000:604 JLINK_WriteReg(R9, 0x20000160)  returns 0x00 (0000ms, 0381ms total)
T16CC 000:604 JLINK_WriteReg(R10, 0x00000000)  returns 0x00 (0000ms, 0381ms total)
T16CC 000:604 JLINK_WriteReg(R11, 0x00000000)  returns 0x00 (0000ms, 0381ms total)
T16CC 000:604 JLINK_WriteReg(R12, 0x00000000)  returns 0x00 (0000ms, 0381ms total)
T16CC 000:604 JLINK_WriteReg(R13 (SP), 0x20001000)  returns 0x00 (0000ms, 0381ms total)
T16CC 000:604 JLINK_WriteReg(R14, 0x20000001)  returns 0x00 (0000ms, 0381ms total)
T16CC 000:604 JLINK_WriteReg(R15 (PC), 0x20000020)  returns 0x00 (0000ms, 0381ms total)
T16CC 000:604 JLINK_WriteReg(XPSR, 0x01000000)  returns 0x00 (0000ms, 0381ms total)
T16CC 000:604 JLINK_WriteReg(MSP, 0x20001000)  returns 0x00 (0000ms, 0381ms total)
T16CC 000:604 JLINK_WriteReg(PSP, 0x20001000)  returns 0x00 (0000ms, 0381ms total)
T16CC 000:604 JLINK_WriteReg(CFBP, 0x00000000)  returns 0x00 (0000ms, 0381ms total)
T16CC 000:604 JLINK_SetBPEx(Addr = 0x20000000, Type = 0xFFFFFFF2)  returns 0x0000000C (0000ms, 0381ms total)
T16CC 000:604 JLINK_Go() -- CPU_ReadMem(4 bytes @ 0xE0001000) (0004ms, 0385ms total)
T16CC 000:608 JLINK_IsHalted() -- CPU_ReadMem(2 bytes @ 0x20000000)  returns TRUE (0003ms, 0388ms total)
T16CC 000:611 JLINK_ReadReg(R15 (PC))  returns 0x20000000 (0000ms, 0385ms total)
T16CC 000:611 JLINK_ClrBPEx(BPHandle = 0x0000000C)  returns 0x00 (0000ms, 0385ms total)
T16CC 000:611 JLINK_ReadReg(R0)  returns 0x00000001 (0000ms, 0385ms total)
T16CC 000:611 JLINK_WriteReg(R0, 0x08001400)  returns 0x00 (0000ms, 0385ms total)
T16CC 000:611 JLINK_WriteReg(R1, 0x00000400)  returns 0x00 (0000ms, 0385ms total)
T16CC 000:611 JLINK_WriteReg(R2, 0x000000FF)  returns 0x00 (0000ms, 0385ms total)
T16CC 000:611 JLINK_WriteReg(R3, 0x00000000)  returns 0x00 (0000ms, 0385ms total)
T16CC 000:611 JLINK_WriteReg(R4, 0x00000000)  returns 0x00 (0000ms, 0385ms total)
T16CC 000:611 JLINK_WriteReg(R5, 0x00000000)  returns 0x00 (0000ms, 0385ms total)
T16CC 000:611 JLINK_WriteReg(R6, 0x00000000)  returns 0x00 (0000ms, 0385ms total)
T16CC 000:611 JLINK_WriteReg(R7, 0x00000000)  returns 0x00 (0000ms, 0385ms total)
T16CC 000:611 JLINK_WriteReg(R8, 0x00000000)  returns 0x00 (0000ms, 0385ms total)
T16CC 000:611 JLINK_WriteReg(R9, 0x20000160)  returns 0x00 (0001ms, 0386ms total)
T16CC 000:612 JLINK_WriteReg(R10, 0x00000000)  returns 0x00 (0000ms, 0386ms total)
T16CC 000:612 JLINK_WriteReg(R11, 0x00000000)  returns 0x00 (0000ms, 0386ms total)
T16CC 000:612 JLINK_WriteReg(R12, 0x00000000)  returns 0x00 (0000ms, 0386ms total)
T16CC 000:612 JLINK_WriteReg(R13 (SP), 0x20001000)  returns 0x00 (0000ms, 0386ms total)
T16CC 000:612 JLINK_WriteReg(R14, 0x20000001)  returns 0x00 (0000ms, 0386ms total)
T16CC 000:612 JLINK_WriteReg(R15 (PC), 0x200000B6)  returns 0x00 (0000ms, 0386ms total)
T16CC 000:612 JLINK_WriteReg(XPSR, 0x01000000)  returns 0x00 (0000ms, 0386ms total)
T16CC 000:612 JLINK_WriteReg(MSP, 0x20001000)  returns 0x00 (0000ms, 0386ms total)
T16CC 000:612 JLINK_WriteReg(PSP, 0x20001000)  returns 0x00 (0000ms, 0386ms total)
T16CC 000:612 JLINK_WriteReg(CFBP, 0x00000000)  returns 0x00 (0000ms, 0386ms total)
T16CC 000:612 JLINK_SetBPEx(Addr = 0x20000000, Type = 0xFFFFFFF2)  returns 0x0000000D (0000ms, 0386ms total)
T16CC 000:612 JLINK_Go() -- CPU_ReadMem(4 bytes @ 0xE0001000) (0004ms, 0390ms total)
T16CC 000:616 JLINK_IsHalted()  returns FALSE (0001ms, 0391ms total)
T16CC 000:618 JLINK_IsHalted()  returns FALSE (0001ms, 0391ms total)
T16CC 000:620 JLINK_IsHalted()  returns FALSE (0001ms, 0391ms total)
T16CC 000:622 JLINK_IsHalted()  returns FALSE (0001ms, 0391ms total)
T16CC 000:624 JLINK_IsHalted()  returns FALSE (0000ms, 0390ms total)
T16CC 000:625 JLINK_IsHalted()  returns FALSE (0001ms, 0391ms total)
T16CC 000:627 JLINK_IsHalted()  returns FALSE (0001ms, 0391ms total)
T16CC 000:629 JLINK_IsHalted()  returns FALSE (0001ms, 0391ms total)
T16CC 000:631 JLINK_IsHalted()  returns FALSE (0001ms, 0391ms total)
T16CC 000:633 JLINK_IsHalted()  returns FALSE (0001ms, 0391ms total)
T16CC 000:635 JLINK_IsHalted()  returns FALSE (0001ms, 0391ms total)
T16CC 000:637 JLINK_IsHalted() -- CPU_ReadMem(2 bytes @ 0x20000000)  returns TRUE (0003ms, 0393ms total)
T16CC 000:640 JLINK_ReadReg(R15 (PC))  returns 0x20000000 (0000ms, 0390ms total)
T16CC 000:640 JLINK_ClrBPEx(BPHandle = 0x0000000D)  returns 0x00 (0000ms, 0390ms total)
T16CC 000:640 JLINK_ReadReg(R0)  returns 0x00000000 (0000ms, 0390ms total)
T16CC 000:641 JLINK_WriteReg(R0, 0x08001800)  returns 0x00 (0000ms, 0390ms total)
T16CC 000:641 JLINK_WriteReg(R1, 0x00000400)  returns 0x00 (0000ms, 0390ms total)
T16CC 000:641 JLINK_WriteReg(R2, 0x000000FF)  returns 0x00 (0000ms, 0390ms total)
T16CC 000:641 JLINK_WriteReg(R3, 0x00000000)  returns 0x00 (0000ms, 0390ms total)
T16CC 000:641 JLINK_WriteReg(R4, 0x00000000)  returns 0x00 (0000ms, 0390ms total)
T16CC 000:641 JLINK_WriteReg(R5, 0x00000000)  returns 0x00 (0001ms, 0391ms total)
T16CC 000:642 JLINK_WriteReg(R6, 0x00000000)  returns 0x00 (0000ms, 0391ms total)
T16CC 000:642 JLINK_WriteReg(R7, 0x00000000)  returns 0x00 (0000ms, 0391ms total)
T16CC 000:642 JLINK_WriteReg(R8, 0x00000000)  returns 0x00 (0000ms, 0391ms total)
T16CC 000:642 JLINK_WriteReg(R9, 0x20000160)  returns 0x00 (0000ms, 0391ms total)
T16CC 000:642 JLINK_WriteReg(R10, 0x00000000)  returns 0x00 (0000ms, 0391ms total)
T16CC 000:642 JLINK_WriteReg(R11, 0x00000000)  returns 0x00 (0000ms, 0391ms total)
T16CC 000:642 JLINK_WriteReg(R12, 0x00000000)  returns 0x00 (0000ms, 0391ms total)
T16CC 000:642 JLINK_WriteReg(R13 (SP), 0x20001000)  returns 0x00 (0000ms, 0391ms total)
T16CC 000:642 JLINK_WriteReg(R14, 0x20000001)  returns 0x00 (0000ms, 0391ms total)
T16CC 000:642 JLINK_WriteReg(R15 (PC), 0x20000020)  returns 0x00 (0000ms, 0391ms total)
T16CC 000:642 JLINK_WriteReg(XPSR, 0x01000000)  returns 0x00 (0000ms, 0391ms total)
T16CC 000:642 JLINK_WriteReg(MSP, 0x20001000)  returns 0x00 (0000ms, 0391ms total)
T16CC 000:642 JLINK_WriteReg(PSP, 0x20001000)  returns 0x00 (0000ms, 0391ms total)
T16CC 000:642 JLINK_WriteReg(CFBP, 0x00000000)  returns 0x00 (0000ms, 0391ms total)
T16CC 000:642 JLINK_SetBPEx(Addr = 0x20000000, Type = 0xFFFFFFF2)  returns 0x0000000E (0000ms, 0391ms total)
T16CC 000:642 JLINK_Go() -- CPU_ReadMem(4 bytes @ 0xE0001000) (0004ms, 0395ms total)
T16CC 000:646 JLINK_IsHalted() -- CPU_ReadMem(2 bytes @ 0x20000000)  returns TRUE (0003ms, 0398ms total)
T16CC 000:649 JLINK_ReadReg(R15 (PC))  returns 0x20000000 (0000ms, 0395ms total)
T16CC 000:649 JLINK_ClrBPEx(BPHandle = 0x0000000E)  returns 0x00 (0000ms, 0395ms total)
T16CC 000:649 JLINK_ReadReg(R0)  returns 0x00000001 (0000ms, 0395ms total)
T16CC 000:649 JLINK_WriteReg(R0, 0x08001800)  returns 0x00 (0000ms, 0395ms total)
T16CC 000:649 JLINK_WriteReg(R1, 0x00000400)  returns 0x00 (0000ms, 0395ms total)
T16CC 000:649 JLINK_WriteReg(R2, 0x000000FF)  returns 0x00 (0000ms, 0395ms total)
T16CC 000:649 JLINK_WriteReg(R3, 0x00000000)  returns 0x00 (0000ms, 0395ms total)
T16CC 000:649 JLINK_WriteReg(R4, 0x00000000)  returns 0x00 (0000ms, 0395ms total)
T16CC 000:649 JLINK_WriteReg(R5, 0x00000000)  returns 0x00 (0001ms, 0396ms total)
T16CC 000:650 JLINK_WriteReg(R6, 0x00000000)  returns 0x00 (0000ms, 0396ms total)
T16CC 000:650 JLINK_WriteReg(R7, 0x00000000)  returns 0x00 (0000ms, 0396ms total)
T16CC 000:650 JLINK_WriteReg(R8, 0x00000000)  returns 0x00 (0000ms, 0396ms total)
T16CC 000:650 JLINK_WriteReg(R9, 0x20000160)  returns 0x00 (0000ms, 0396ms total)
T16CC 000:650 JLINK_WriteReg(R10, 0x00000000)  returns 0x00 (0000ms, 0396ms total)
T16CC 000:650 JLINK_WriteReg(R11, 0x00000000)  returns 0x00 (0000ms, 0396ms total)
T16CC 000:650 JLINK_WriteReg(R12, 0x00000000)  returns 0x00 (0000ms, 0396ms total)
T16CC 000:650 JLINK_WriteReg(R13 (SP), 0x20001000)  returns 0x00 (0000ms, 0396ms total)
T16CC 000:650 JLINK_WriteReg(R14, 0x20000001)  returns 0x00 (0000ms, 0396ms total)
T16CC 000:650 JLINK_WriteReg(R15 (PC), 0x200000B6)  returns 0x00 (0000ms, 0396ms total)
T16CC 000:650 JLINK_WriteReg(XPSR, 0x01000000)  returns 0x00 (0000ms, 0396ms total)
T16CC 000:650 JLINK_WriteReg(MSP, 0x20001000)  returns 0x00 (0000ms, 0396ms total)
T16CC 000:650 JLINK_WriteReg(PSP, 0x20001000)  returns 0x00 (0000ms, 0396ms total)
T16CC 000:650 JLINK_WriteReg(CFBP, 0x00000000)  returns 0x00 (0000ms, 0396ms total)
T16CC 000:650 JLINK_SetBPEx(Addr = 0x20000000, Type = 0xFFFFFFF2)  returns 0x0000000F (0000ms, 0396ms total)
T16CC 000:650 JLINK_Go() -- CPU_ReadMem(4 bytes @ 0xE0001000) (0004ms, 0400ms total)
T16CC 000:654 JLINK_IsHalted()  returns FALSE (0001ms, 0401ms total)
T16CC 000:656 JLINK_IsHalted()  returns FALSE (0001ms, 0401ms total)
T16CC 000:658 JLINK_IsHalted()  returns FALSE (0001ms, 0401ms total)
T16CC 000:660 JLINK_IsHalted()  returns FALSE (0001ms, 0401ms total)
T16CC 000:664 JLINK_IsHalted()  returns FALSE (0001ms, 0401ms total)
T16CC 000:666 JLINK_IsHalted()  returns FALSE (0001ms, 0401ms total)
T16CC 000:668 JLINK_IsHalted()  returns FALSE (0001ms, 0401ms total)
T16CC 000:670 JLINK_IsHalted()  returns FALSE (0001ms, 0401ms total)
T16CC 000:672 JLINK_IsHalted()  returns FALSE (0001ms, 0401ms total)
T16CC 000:674 JLINK_IsHalted()  returns FALSE (0001ms, 0401ms total)
T16CC 000:676 JLINK_IsHalted() -- CPU_ReadMem(2 bytes @ 0x20000000)  returns TRUE (0003ms, 0403ms total)
T16CC 000:679 JLINK_ReadReg(R15 (PC))  returns 0x20000000 (0000ms, 0400ms total)
T16CC 000:679 JLINK_ClrBPEx(BPHandle = 0x0000000F)  returns 0x00 (0000ms, 0400ms total)
T16CC 000:679 JLINK_ReadReg(R0)  returns 0x00000000 (0000ms, 0400ms total)
T16CC 000:680 JLINK_WriteReg(R0, 0x08001C00)  returns 0x00 (0000ms, 0400ms total)
T16CC 000:680 JLINK_WriteReg(R1, 0x00000400)  returns 0x00 (0000ms, 0400ms total)
T16CC 000:680 JLINK_WriteReg(R2, 0x000000FF)  returns 0x00 (0000ms, 0400ms total)
T16CC 000:680 JLINK_WriteReg(R3, 0x00000000)  returns 0x00 (0000ms, 0400ms total)
T16CC 000:680 JLINK_WriteReg(R4, 0x00000000)  returns 0x00 (0000ms, 0400ms total)
T16CC 000:680 JLINK_WriteReg(R5, 0x00000000)  returns 0x00 (0001ms, 0401ms total)
T16CC 000:681 JLINK_WriteReg(R6, 0x00000000)  returns 0x00 (0000ms, 0401ms total)
T16CC 000:681 JLINK_WriteReg(R7, 0x00000000)  returns 0x00 (0000ms, 0401ms total)
T16CC 000:681 JLINK_WriteReg(R8, 0x00000000)  returns 0x00 (0000ms, 0401ms total)
T16CC 000:681 JLINK_WriteReg(R9, 0x20000160)  returns 0x00 (0000ms, 0401ms total)
T16CC 000:681 JLINK_WriteReg(R10, 0x00000000)  returns 0x00 (0000ms, 0401ms total)
T16CC 000:681 JLINK_WriteReg(R11, 0x00000000)  returns 0x00 (0000ms, 0401ms total)
T16CC 000:681 JLINK_WriteReg(R12, 0x00000000)  returns 0x00 (0000ms, 0401ms total)
T16CC 000:681 JLINK_WriteReg(R13 (SP), 0x20001000)  returns 0x00 (0000ms, 0401ms total)
T16CC 000:681 JLINK_WriteReg(R14, 0x20000001)  returns 0x00 (0000ms, 0401ms total)
T16CC 000:681 JLINK_WriteReg(R15 (PC), 0x20000020)  returns 0x00 (0000ms, 0401ms total)
T16CC 000:681 JLINK_WriteReg(XPSR, 0x01000000)  returns 0x00 (0000ms, 0401ms total)
T16CC 000:681 JLINK_WriteReg(MSP, 0x20001000)  returns 0x00 (0000ms, 0401ms total)
T16CC 000:681 JLINK_WriteReg(PSP, 0x20001000)  returns 0x00 (0000ms, 0401ms total)
T16CC 000:681 JLINK_WriteReg(CFBP, 0x00000000)  returns 0x00 (0000ms, 0401ms total)
T16CC 000:681 JLINK_SetBPEx(Addr = 0x20000000, Type = 0xFFFFFFF2)  returns 0x00000010 (0000ms, 0401ms total)
T16CC 000:681 JLINK_Go() -- CPU_ReadMem(4 bytes @ 0xE0001000) (0004ms, 0405ms total)
T16CC 000:685 JLINK_IsHalted() -- CPU_ReadMem(2 bytes @ 0x20000000)  returns TRUE (0003ms, 0408ms total)
T16CC 000:688 JLINK_ReadReg(R15 (PC))  returns 0x20000000 (0000ms, 0405ms total)
T16CC 000:688 JLINK_ClrBPEx(BPHandle = 0x00000010)  returns 0x00 (0000ms, 0405ms total)
T16CC 000:688 JLINK_ReadReg(R0)  returns 0x00000001 (0000ms, 0405ms total)
T16CC 000:688 JLINK_WriteReg(R0, 0x08001C00)  returns 0x00 (0000ms, 0405ms total)
T16CC 000:688 JLINK_WriteReg(R1, 0x00000400)  returns 0x00 (0000ms, 0405ms total)
